Ex_Re,Ex_Im,Ey_Re,Ey_Im,Ez_Re,Ez_Im,Hx_Re,Hx_Im,Hy_Re,Hy_Im,Hz_Re,Hz_Im
-0.004138927175172476,-0.002288214286990794,0.005499064729849366,0.004468890050921841,0.005151062173533255,0.0043323249519830334,0.0008202354515717207,0.0006346267081081128,0.006266923615650279,0.0048487993252963775,-0.006031246133770214,-0.004666452629339556
-8.479603406533849e-05,-7.176963217960826e-05,0.0007782951000510124,0.00022392576904571855,0.0032005203656620936,9.192790337698894e-05,-0.0031186800845860244,-0.0001372481483650941,-0.0010727276117043626,-4.720903536538176e-05,0.0001782356854553159,7.84386892462316e-06
0.000830330234783763,-0.0003283631348246088,7.300863210942671e-05,0.0002493328114886036,0.0007241356425792583,5.288927298388086e-05,-0.00048201892986213826,9.558563263554802e-05,-0.0007684803196591481,0.0001523916862426893,0.0006301866132684248,-0.00012496767735853046
-0.0023072199707762533,0.00026162353302106245,-0.00012682971137484376,0.0005824602461056084,0.00260716203386629,8.24089942621758e-05,-0.0024393035083644216,9.522363843823084e-05,0.001391502402748031,-5.432039155064113e-05,-0.0020909808636177083,8.162608919129468e-05
-0.0005888208826652227,-0.000483739744592639,-0.0009409647572096507,0.0002093083893476501,0.0025746859339529837,0.001944074276262684,-0.002705884257015959,-0.0018796743426377248,-0.00011513434985804869,-7.997943105782042e-05,-0.000660903335714503,-0.00045910427982467515
0.0004677815661071399,0.0022166717805651593,0.00045057374890918587,-1.978994142354945e-05,3.800499845643012e-05,-0.0015478298508257182,0.00017744421298239451,0.0012878504895481504,-0.0002058775675299323,-0.0014942134300920372,0.0002567529527438062,0.0018634556198057078
0.0005200729090768744,-2.394881373170819e-05,-0.002960320689395915,0.0007688190246723152,0.0005830313536516717,-0.0013482870830891782,-0.0029925122925996968,0.0011293195412287512,-0.0005804460881847812,0.0002190497635173947,-0.0002778272376899946,0.00010484693058231206
-9.807576243155021e-05,0.00015405107854261132,0.000180667243641647,-0.0013178378185256692,0.0005905587509748363,0.0006661845859448254,-0.0001117008681116888,-0.0014589192512608025,-1.9430130448003547e-05,-0.00025377592711953796,-1.2606298154743112e-05,-0.00016465020707537092
1.4737556806898784e-05,-0.00011371232893688519,3.145639365230218e-05,0.00031572511308430124,0.0003229400602372981,3.1645640446551545e-05,-0.00021996361656339384,0.00017698034420501153,-8.101978754855827e-05,6.518764381030376e-05,1.7930004165641603e-05,-1.442628721244908e-05
0.0006582383662417442,-0.00040233910725135194,-0.003686532937958847,0.0030033316986406325,-0.003729200782201979,0.003052321710057945,0.0003930894590596292,-0.0003194523318157432,0.0038123173702709627,-0.003098159071647811,-0.003699314624725699,0.0030063250381115935
0.0011890573862377856,5.8475237791900006e-05,0.00010084243377674528,-0.000377734929681258,-0.003017140864569412,-0.00025011061186796634,0.00301819023318868,0.00022921581077338604,-0.0003134205189998089,-2.380265418182657e-05,0.0011789954336188723,8.953855566935548e-05
0.0006111184576053868,-5.175532362211707e-06,0.0006149668943080723,-0.00048631823274427585,-0.0020940796487870896,1.1288645242359425e-05,0.002183465969317679,-0.00014412591667714187,-8.503934127173394e-06,5.613264958848434e-07,0.0006347068595091525,-4.1895641715273806e-05
0.002122985621851056,-0.002552881382793827,-0.0032167568001564,0.0030957980949133093,-0.0017445166798825196,0.0010536529554185977,-0.0025015292558097494,0.002449044105652336,-0.0027569000452666134,0.002699056902913293,0.0020392847865911908,-0.001996498092016507
0.0005353678834016488,-0.0006559526344720967,-4.245024009055711e-05,0.0007114210260369402,0.002091751658153621,-0.0011319481995513648,-0.0018466501350240983,0.0011986991089513292,-0.0009823754414209115,0.0006376803834969791,0.0004526995817752528,-0.0002938567382118397
0.0002757046657092082,0.00038092524606604406,-0.0005914455368019836,-0.0010210152747768416,-0.002832898098466755,-0.0028824326172170846,0.002826526502736286,0.002999180997571499,0.0006769169730550493,0.0007182655179616899,0.00013375949606563467,0.00014193001143149731
-0.0013206609901695136,0.0019040126210278056,0.0038721516895671125,-0.005027692476536795,0.0037804106154110837,-0.0048256891242771886,-0.001579565261541971,0.002042232302653755,-0.004059630095226983,0.005248727557609427,0.003606336638228589,-0.004662660895469736
0.00033358721646511253,-7.914791410356233e-05,0.003490476417892489,0.0016226176678828686,-0.0003234713558087502,0.0005189679315420106,0.0033254109253931883,0.0015190075199377235,-0.00020997215865504174,-9.591274435860986e-05,0.001163663178348731,0.0005315472758836133
-0.0013719084822253593,-0.00021648581563495718,-0.00038839155242657636,0.0002322004850931871,0.0013000671945423052,0.0004028379117982167,-0.001327046421331324,-0.0002688668359191367,0.0007852532574721486,0.00015909658873871396,-0.0011657862888750084,-0.00023619465439143008
-0.001014597266721595,-0.00036616313879964075,0.00041799059525693405,0.0006723730441869566,0.0042607588082636165,0.0014168093831395333,-0.004298335532132439,-0.0015067392935047786,-0.00023196097897601985,-8.13116423718585e-05,-0.001000789335083971,-0.0003508168695577481
-0.0012468608059786775,-0.000157963299743014,-0.0007981129690257964,0.000566883242155923,0.002580528747248604,0.0005563309929904271,-0.0027132187410259067,-0.0003840285388196206,0.000406993414068773,5.7605781557789754e-05,-0.0011850979716526372,-0.00016773857394180252
-0.0023292931690481965,0.0006604885754257007,0.002987042548799698,-0.0004863254066107013,0.0002740767625735072,0.00047357835293609517,0.0027093207253314914,-0.0005485636064810332,0.0022476498944700067,-0.0004550878457057988,-0.0014704771303025892,0.00029773154219236005
-0.00154801303548735,-0.0006598135921241832,-0.0020684783838217434,-0.0014973618713636145,-0.0007147866005290805,-0.0008087651719894107,-0.001177419638663786,-0.0007899436955767896,0.0015246830403069227,0.0010229265046149175,-0.001862252259875687,-0.0012494053810176813
-0.0028261535865199126,0.0006649434386305757,0.0065525459589314515,-0.0009100094905386575,0.006808679529437132,-0.0010191540359664837,-0.001951643524854699,0.00029263943771844957,0.006667944628205656,-0.0009998258093168602,-0.0072271954881348455,0.0010836827509709064
1.0960700195498442e-05,-0.001024951312135839,0.0008128668782832957,-0.0024297050652852085,0.00042744225923553234,0.00028919959893833986,0.0005991659366493064,-0.0021563600182470766,-0.0002075927833197972,0.0007471131962721155,0.00037941503449468616,-0.0013654905271843671
0.0009386700065525059,0.00029931865653994526,-0.00046885767162739697,-0.00048488916359543566,-0.0035092225869376597,-0.0010907471321347224,0.0035509768081279395,0.0011573279677242413,7.913661214943665e-05,2.5792062145225136e-05,0.0009392654738714463,0.0003061237120842447
0.00014375667083382283,0.00025480708486891313,-0.0002737694349451219,0.00019234341400394678,-0.0003184294608023106,-1.9757645655869936e-05,1.5228765858199818e-05,0.0001494442770480778,-1.7888314799087665e-05,-0.00017554319881533042,2.225456934007994e-05,0.0002183905154897238
-0.00021718669696517716,-0.0016696488407705757,-0.0006586826359297348,0.00021309046577102503,0.00038288706539710694,0.00433880943154758,-0.0003836650443313307,-0.004343229161791824,3.9553716367462304e-05,0.00044776259115242035,-0.0001495835266782443,-0.0016933404405525155
0.003583927373474837,-0.0007182215614222335,0.0057572162278273185,0.001634927916060279,0.001560293265199352,0.0018349218339970513,0.0037872787394909293,0.0008452293475563052,-0.0036378251774436664,-0.0008118749140888194,0.004723736469627687,0.0010542241458541307
-0.003776818407177868,-0.0024379596708599457,0.003939134283594558,0.004230770993460884,0.006121209290445599,0.005240372209169998,-0.004562320735753559,-0.00400132127574444,0.004226993164764501,0.003707226795795387,-0.005535140038255507,-0.0048545191980323334
0.003571206919399951,0.0007903924059135951,0.0009641186906388472,0.0027236864364661947,-0.000699156410829834,0.0020444948758217654,0.0010274014522270538,0.0008181255506351305,-0.002082131496664511,-0.0016580130128402263,0.0023766374121071267,0.0018925297284965183
0.00017280292956573494,-2.007310089864535e-05,-0.0005782636354025603,4.8687960514828864e-05,0.00010660547613642376,-0.0005533884460878016,-0.0005225286018361592,0.00036435920949010893,-0.00015517021537114604,0.00010820019576032382,5.3016069431126635e-06,-3.6968106779836932e-06
-0.0007541796891302696,-0.0014078371376425062,-0.00016874883256529083,0.00029406215479880517,0.001077934466110106,0.0023499501123948417,-0.0010494234626121082,-0.0022226704563825025,0.00037464105809946745,0.0007934867489172519,-0.0006755824611875008,-0.001430878221070099
0.0006141246754165656,0.0019192380821030377,-0.00023895458829626998,-0.00302302182456496,-0.0020413341861698084,-0.006499175766218774,0.00198299258550877,0.007178896908570545,-3.1560439085850195e-05,-0.00011425617031664737,0.0006002673143667756,0.0021731080584539734
0.002304278942588641,-0.0006416485744644669,-0.0009098464611244717,-0.0005896900822393618,-0.005021946192483998,0.0010419026287330018,0.004967123318568728,-0.0009934486953545431,-0.001043761724893857,0.0002087573948447083,0.002468226481283686,-0.0004936572378833892
-0.0011450844977630849,-0.000668134148443077,-0.0004904817408204276,6.627039191237755e-05,0.0009094771027011752,0.0007730728764885359,-0.00102422424030882,-0.0006544324005703626,0.0006469576709557981,0.0004133763340177878,-0.0009406530110350268,-0.000601034210955387
-0.002136772653655434,0.002758105075442602,-0.012359722264869187,0.001049960788859688,-0.009844266522656926,-0.0003048495521382388,0.005292761075923062,-0.00028262736830627695,-0.010433544750135413,0.0005571393177467905,0.011950741881035658,-0.000638155903637811
0.0009216782867687843,0.0003242893415618918,-0.004519163224226361,0.007660667230414523,-0.004758849099276808,0.009272944644574628,0.0026100336029497794,-0.004716215410644371,0.004832121537405545,-0.008731430137551796,-0.004083242448308047,0.007378238708629454
0.0027558080975322473,-0.00735592352934873,-0.005116393147804781,0.006636097036858716,-0.004270065438585105,0.003053206519097627,-0.0027905736877337833,0.004112953762195412,-0.00504693907264055,0.007438551842451199,0.004246267225646352,-0.006258462493850958
-0.00035782955858498246,0.0019732188900032613,-0.0018831996960805629,0.003709360167280908,-0.001109920703919507,0.001093751052342756,-0.0012050700069223474,0.002470051479005223,0.0010535951584601567,-0.002159571032784777,-0.0013991273503406185,0.0028678139536902412
0.0018071733195805695,0.0012190199015569836,0.0002587148654017795,-0.00031136801610911775,-0.0014079145525145616,-0.0013121664761398901,0.0013291225799163771,0.0010350194369134473,-0.0011192599337212605,-0.0008715943915668386,0.0015003649745660406,0.0011683699717430914
-0.0009387425955801239,9.836830643957497e-05,-0.0028183589596460262,-0.00040360266988021833,-0.00016215237460913239,-0.0003771893067761092,-0.0023819022030744496,-0.0003041903591797088,0.0008834973664263565,0.00011283056914791391,-0.0015665491336255748,-0.00020006243036139074
-0.00015772943096586652,-2.6503927667915128e-06,0.0003500231496742978,0.00037338866935626757,0.0004303300147314238,0.00022717893576355624,-6.8334935882468e-05,9.265998479414476e-05,2.9209233757533835e-05,-3.9606785619536825e-05,-4.880519097493897e-05,6.617827609279156e-05
-0.0018113630180890145,-0.00014374417716665828,0.002254189459360618,0.0005414812048594656,0.004483950451304441,0.0005193923321194019,-0.004652679891315161,-0.0006260132937500252,0.0010964598472220908,0.000147527544653438,-0.0024307406245276707,-0.00032705365083314
-0.0012791365492053712,0.002224470035599545,0.0011796381031498322,0.0009001288697831683,0.0033434327357199987,-0.004809537168541728,-0.003284232734749867,0.004883711088663569,0.00048615048191296106,-0.0007229142058527988,-0.0014280125059600696,0.0021234793857076014
0.002742654474156169,-0.00012183214650668541,-0.010433428001964933,0.000978391516503899,0.0003100402909171473,-0.005851207273963754,0.010906245318994895,-0.0014658241863663348,0.002874479652885233,-0.00038633660578665487,0.00025356053199586837,-3.4079112438460334e-05
-0.0007813859129878185,-0.0022149094363217484,-0.0005627553158751222,0.00038724218970741416,-0.000479329443382868,0.0005735225401467272,-3.9777821923050056e-05,-0.00014697049695238773,0.0004379373883751025,0.001618084462443196,-0.0004493146970246084,-0.0016601211709747318
0.0002767419676950977,-0.0011336252456011693,-0.0002738029788387187,-0.00031014687621810965,-0.0007197516001553633,0.0024403476099356582,0.00067618778462728,-0.002455387686212924,-0.00010664066024296608,0.0003872358684422635,0.0003005593435878411,-0.0010913975791926056
-0.00030558406290893383,-6.708246114999715e-05,-0.0005966192282546683,0.00028507137406985573,0.001041464327717478,0.00023464600296219378,-0.001191836783831508,-8.088165807648792e-05,5.0198115552306076e-06,3.4065963337137903e-07,-0.0003468303243982741,-2.3536957483688787e-05
0.00047214990050053915,-0.0009218829399575413,0.0003171987544345154,-5.817827560727559e-05,0.0005291518941976832,-0.0004114097875868609,-0.00017881391170855855,0.00024304878370843996,-0.0005264503726696145,0.000715565816650498,0.0004751308194500595,-0.000645810869335197
7.655329336817506e-05,0.0004267979402639581,-0.004067409285281993,-0.004140672879813217,0.0005118418973245808,-0.0009446201725906559,-0.003949429909781572,-0.004131014841420137,-0.00019262906265963656,-0.0002014856662641263,-0.0009400546810869896,-0.0009832760494619345
-6.382491612763846e-05,0.0015794581696322709,-0.0011914667508954781,0.0024860809862448548,-0.0006828621605917923,-0.00038923963551011024,-0.0007637082655242046,0.0021593505645344673,0.0003898703033032732,-0.0011023406417570915,-0.0006088694198460123,0.0017215507345200924
0.0012339444057852312,4.395898826702711e-06,-1.3061228014685233e-05,0.0005797828900135786,0.003175071685973091,0.0010221652599969968,-0.002701704978709477,-0.0007859717582427704,-0.0018174594821774885,-0.0005287297599104894,0.0010425010265058144,0.00030328121361498895
-0.00043087745693109455,-0.00040037204661473873,-0.0001796858190278377,-0.0009837472671105113,0.0006017048807414249,0.00012172124736495272,-0.00045387265848023434,-0.0008483265570571463,0.00015004953429393253,0.00028045532692325283,-0.0002802066740499353,-0.0005237300785140102
0.00046308929755179795,0.001009703666910273,-0.00020364536377086176,0.00032413148207759016,-8.156707209748223e-05,0.0006568302296395476,-6.283616952315489e-05,-0.000249547409956457,-0.00022631004321726263,-0.0008987671521127794,0.0002082731797747072,0.0008271355967524643
0.0025313159009821215,0.003157049207843985,-0.0010916459483268572,-0.0027853716447041924,-0.002642141398909957,-0.004433803646639109,0.0018204010231322172,0.002955696372057168,-0.0020825533920666465,-0.003381340390017823,0.002604486282029271,0.004228777372153488
-0.0010847789247810718,0.0027389797348924398,0.0008559463426035903,-0.0010284204411264582,0.0007400327656055087,-0.0006907738840196257,0.0001431090652793311,-0.0002869475308562814,0.0010767751801058839,-0.002159038483101154,-0.001035656953149523,0.002076592457230702
-0.00027191985189358185,-5.5484784264923036e-05,0.00034811391127747074,-0.00024649318455130433,-0.0022899055324064215,-0.0021809718715322932,0.0021845330082311903,0.0020526035083236033,0.000769057650374667,0.000722612304466991,-0.00014249418623054643,-0.00013388860020447114
0.0006932569129918915,-0.0010131122419774457,-0.0025112038337498812,0.0037436280740371437,-0.0005970587077143812,-0.0005550227937128772,-0.0025158284884628946,0.0037798977315806363,-0.0006861001455954993,0.0010308287690780006,-3.547084281568458e-05,5.3293043985751374e-05
0.0010102428485732793,1.4340051940425094e-05,-0.0008922666918010787,-0.00029091591411655935,-0.0037320288729210285,-3.081216905864386e-05,0.0038471113336305657,9.628479135274017e-05,8.139727009816681e-05,2.0371958304332346e-06,0.001021934387278269,2.5576784949038714e-05
-0.0010740353888496327,0.000189131101213196,-0.0004566572857485551,-0.0003378847611268272,-0.00291666223681825,-0.00014964320692582706,0.002321719328569797,9.312838620758416e-05,0.0018032678089298035,7.233235252823121e-05,-0.0011372877061631803,-4.561867897871451e-05
0.0007049664759924381,0.002281886272585281,-0.00044392014471100185,0.0012153828888451061,-0.00010499353744263495,0.0027590128332126975,-7.681157413586829e-05,-0.0013564109216800588,-0.00015294034157765089,-0.002700764201426939,0.00013090056936899535,0.00231156520281924
0.0011021104084340783,-0.0005706353343718801,-0.000899549593281672,0.00014808480756066823,-0.003179828849917716,0.0015748388008117258,0.003265942603519752,-0.0015609498296800545,-0.0002723795302575816,0.00013018317618493746,0.0012090110549340901,-0.000577844080372632
0.0016335767424046032,-0.0014384047141636786,0.0017240918467627752,-0.0006731297706390169,0.0013555100303990165,-0.0003905139975451627,0.00034031646280297613,-0.0001934296457843639,-0.001866760816708436,0.0010610326652022457,0.001964230426584988,-0.001116432606650499
0.0013586864951306752,-0.002612808923796337,-0.004418807970819256,0.006969825568367013,-0.004815602106104186,0.009635324906832294,0.006746028330013728,-0.012181998862700381,0.0003810889582951332,-0.0006881716217947662,0.001553653831110561,-0.002805592902628742
-0.0020208259779567785,0.0007457771844686361,-0.003854757195931399,-2.03328361938056e-05,-0.004400584221709039,0.00010878528470346143,0.0007456510999082264,-3.701496756927471e-05,0.004487265551663703,-0.00022275295897772885,-0.00427310314747582,0.00021212169397114865
0.0016068605511212553,4.3633252578434466e-05,-0.0013307783083484407,-0.00032102905037755057,-0.003596896540028473,-0.0002314552212852744,0.0035819020266159487,0.0002771014071211888,-0.0009094309408701752,-7.035496546865549e-05,0.0019366328600450228,0.0001498208735492996
-1.5930605748900846e-05,5.677568240419783e-05,0.0004276683092344024,-8.295543843252835e-05,-0.0004425216621702641,-0.0003518856854756527,0.0005944494144304764,0.0002417185005751657,9.7583165258466e-05,3.967983787191313e-05,7.29078162606627e-05,2.9646203022373707e-05
-0.0001741610217376459,-4.422956354722794e-05,0.00045478011938385925,5.1712109874653845e-05,-0.0004685264646571768,-0.0005690914915541456,0.0006166096684706943,0.0004981444364744488,0.00020605306271241896,0.00016646541897938238,-2.9199062265166923e-05,-2.3589235072714756e-05
0.0026341231401363343,0.0024036159039277872,-0.0024043616618044474,0.0010425187013201175,0.001073721368019647,0.005876899542606049,-0.0014783469763543459,-0.004576634562093748,-0.0012505390363403914,-0.0038713916736087214,0.0008264712712531294,0.0025585718678319326
0.0024676520623053847,-0.0015968893863446943,-0.0023050083718177314,0.0007149123701857168,-0.00018878204842703774,-0.0009155975638491705,-0.0019391165045231713,0.0010111212104827092,-0.002211506852752085,0.0011531547901993395,0.0016552260720361478,-0.0008630910962161484
0.00653172764175358,-0.0016494443740416257,0.0010017322029385635,-0.006096247523493846,-0.006713777580145513,-0.00225199736334792,0.006760434006254769,-0.00012257239565040322,-0.004036314330187304,7.31817981791369e-05,0.0059748788434401375,-0.00010832961506373575
-0.001492388176932084,0.002211711967923191,-0.0020046519188997784,0.0011947915580982332,-0.002689837265797697,0.002041309190399821,0.000797944920660545,-0.0006973246347284107,0.002637093067843422,-0.0023045575110077453,-0.0024080628692924005,0.0021044078573021255
0.0009355354788885602,0.002286921172988208,0.00024697896995230036,-0.00048747478494826383,-1.4093969382780389e-05,-0.0010445479857005822,0.00015527385151863874,0.0004799376045090996,-0.0005540103818154826,-0.0017123966007230617,0.0005985030452810736,0.0018499194489879677
-0.00406881437896023,-0.001265144371570357,0.0071614482566505116,0.003242283754454744,0.0013004432169290807,0.002267305855996571,0.0068689383842833835,0.003236278126919814,0.00433137515150352,0.0020407134084020825,-0.0023611055996131166,-0.0011124272747677305
