Ex_Re,Ex_Im,Ey_Re,Ey_Im,Ez_Re,Ez_Im,Hx_Re,Hx_Im,Hy_Re,Hy_Im,Hz_Re,Hz_Im
0,0,0.974055,-0.22631,0,0,0,0,0.974055,-0.22631,0,0
0,0,0.584775,0.811195,0,0,0,0,0.584775,0.811195,0,0
0,0,0.912887,-0.408213,0,0,0,0,0.912887,-0.408213,0,0
0,0,0.860263,-0.50985,0,0,0,0,0.860263,-0.50985,0,0
0,0,0.887757,-0.460312,0,0,0,0,0.887757,-0.460312,0,0
0,0,0.593242,0.805024,0,0,0,0,0.593242,0.805024,0,0
0,0,0.870824,0.491595,0,0,0,0,0.870824,0.491595,0,0
0,0,0.884638,-0.466279,0,0,0,0,0.884638,-0.466279,0,0
0,0,0.945749,-0.324898,0,0,0,0,0.945749,-0.324898,0,0
0,0,0.882778,-0.469791,0,0,0,0,0.882778,-0.469791,0,0
0,0,0.812411,-0.583086,0,0,0,0,0.812411,-0.583086,0,0
0,0,0.996425,-0.0844798,0,0,0,0,0.996425,-0.0844798,0,0
0,0,0.7584,0.651789,0,0,0,0,0.7584,0.651789,0,0
0,0,0.60676,-0.794885,0,0,0,0,0.60676,-0.794885,0,0
0,0,0.939533,0.342457,0,0,0,0,0.939533,0.342457,0,0
0,0,0.850854,-0.525402,0,0,0,0,0.850854,-0.525402,0,0
0,0,0.701982,0.712194,0,0,0,0,0.701982,0.712194,0,0
0,0,0.781978,0.623306,0,0,0,0,0.781978,0.623306,0,0
0,0,0.993652,-0.112502,0,0,0,0,0.993652,-0.112502,0,0
0,0,0.929887,0.367844,0,0,0,0,0.929887,0.367844,0,0
0,0,0.746189,-0.665734,0,0,0,0,0.746189,-0.665734,0,0
0,0,0.824156,0.566363,0,0,0,0,0.824156,0.566363,0,0
0,0,0.657873,0.753129,0,0,0,0,0.657873,0.753129,0,0
0,0,0.775735,0.631059,0,0,0,0,0.775735,0.631059,0,0
0,0,0.990114,-0.140262,0,0,0,0,0.990114,-0.140262,0,0
0,0,0.734662,-0.678433,0,0,0,0,0.734662,-0.678433,0,0
0,0,0.886787,-0.462177,0,0,0,0,0.886787,-0.462177,0,0
0,0,0.80543,-0.592691,0,0,0,0,0.80543,-0.592691,0,0
0,0,0.858756,-0.512385,0,0,0,0,0.858756,-0.512385,0,0
0,0,0.982315,-0.187235,0,0,0,0,0.982315,-0.187235,0,0
0,0,0.915959,0.401272,0,0,0,0,0.915959,0.401272,0,0
0,0,0.87596,-0.482384,0,0,0,0,0.87596,-0.482384,0,0
0,0,0.782103,0.62315,0,0,0,0,0.782103,0.62315,0,0
0,0,0.983612,0.180297,0,0,0,0,0.983612,0.180297,0,0
0,0,0.645208,0.764007,0,0,0,0,0.645208,0.764007,0,0
0,0,0.880133,0.474727,0,0,0,0,0.880133,0.474727,0,0
0,0,0.991864,-0.127305,0,0,0,0,0.991864,-0.127305,0,0
0,0,0.962391,-0.271668,0,0,0,0,0.962391,-0.271668,0,0
0,0,0.903393,0.428814,0,0,0,0,0.903393,0.428814,0,0
0,0,0.930869,0.365353,0,0,0,0,0.930869,0.365353,0,0
0,0,0.916233,0.400646,0,0,0,0,0.916233,0.400646,0,0
0,0,0.542582,-0.840003,0,0,0,0,0.542582,-0.840003,0,0
0,0,0.825034,-0.565083,0,0,0,0,0.825034,-0.565083,0,0
0,0,0.652223,-0.758027,0,0,0,0,0.652223,-0.758027,0,0
0,0,0.957781,-0.287499,0,0,0,0,0.957781,-0.287499,0,0
0,0,0.999717,-0.0237749,0,0,0,0,0.999717,-0.0237749,0,0
0,0,0.64954,-0.760328,0,0,0,0,0.64954,-0.760328,0,0
0,0,0.939896,-0.341461,0,0,0,0,0.939896,-0.341461,0,0
0,0,0.965428,0.260668,0,0,0,0,0.965428,0.260668,0,0
0,0,0.665484,-0.746412,0,0,0,0,0.665484,-0.746412,0,0
0,0,0.88708,-0.461615,0,0,0,0,0.88708,-0.461615,0,0
0,0,0.982588,-0.185795,0,0,0,0,0.982588,-0.185795,0,0
0,0,0.674944,0.737869,0,0,0,0,0.674944,0.737869,0,0
0,0,0.996104,0.0881915,0,0,0,0,0.996104,0.0881915,0,0
0,0,0.980731,0.195365,0,0,0,0,0.980731,0.195365,0,0
0,0,0.58461,-0.811315,0,0,0,0,0.58461,-0.811315,0,0
0,0,0.998434,0.0559424,0,0,0,0,0.998434,0.0559424,0,0
0,0,0.603368,0.797463,0,0,0,0,0.603368,0.797463,0,0
0,0,0.969834,0.243768,0,0,0,0,0.969834,0.243768,0,0
0,0,0.646958,0.762526,0,0,0,0,0.646958,0.762526,0,0
0,0,0.770876,0.636986,0,0,0,0,0.770876,0.636986,0,0
0,0,0.960811,0.277206,0,0,0,0,0.960811,0.277206,0,0
0,0,0.700739,-0.713417,0,0,0,0,0.700739,-0.713417,0,0
0,0,0.944475,0.328582,0,0,0,0,0.944475,0.328582,0,0
0,0,0.646216,0.763154,0,0,0,0,0.646216,0.763154,0,0
0,0,0.936092,-0.351756,0,0,0,0,0.936092,-0.351756,0,0
0,0,0.824919,0.565251,0,0,0,0,0.824919,0.565251,0,0
0,0,0.89931,-0.437311,0,0,0,0,0.89931,-0.437311,0,0
0,0,0.870118,0.492844,0,0,0,0,0.870118,0.492844,0,0
0,0,0.811499,-0.584354,0,0,0,0,0.811499,-0.584354,0,0
0,0,0.764893,-0.644158,0,0,0,0,0.764893,-0.644158,0,0
0,0,0.994001,0.10937,0,0,0,0,0.994001,0.10937,0,0
0,0,0.911301,0.411742,0,0,0,0,0.911301,0.411742,0,0
0,0,0.710182,-0.704018,0,0,0,0,0.710182,-0.704018,0,0
0,0,0.9897,-0.14316,0,0,0,0,0.9897,-0.14316,0,0
0,0,0.815581,0.578643,0,0,0,0,0.815581,0.578643,0,0
0,0,0.95705,0.289924,0,0,0,0,0.95705,0.289924,0,0
0,0,0.999295,-0.037553,0,0,0,0,0.999295,-0.037553,0,0
0,0,0.755148,-0.655555,0,0,0,0,0.755148,-0.655555,0,0
0,0,0.705646,0.708564,0,0,0,0,0.705646,0.708564,0,0
0,0,0.977079,-0.212877,0,0,0,0,0.977079,-0.212877,0,0
0,0,0.741621,-0.67082,0,0,0,0,0.741621,-0.67082,0,0
0,0,0.770385,0.637579,0,0,0,0,0.770385,0.637579,0,0
0,0,0.758091,0.652148,0,0,0,0,0.758091,0.652148,0,0
0,0,0.936755,0.349987,0,0,0,0,0.936755,0.349987,0,0
0,0,0.730878,0.682509,0,0,0,0,0.730878,0.682509,0,0
0,0,0.986551,0.163451,0,0,0,0,0.986551,0.163451,0,0
0,0,0.993556,-0.11334,0,0,0,0,0.993556,-0.11334,0,0
0,0,0.817696,0.57565,0,0,0,0,0.817696,0.57565,0,0
0,0,0.933949,-0.357407,0,0,0,0,0.933949,-0.357407,0,0
0,0,0.997978,-0.0635569,0,0,0,0,0.997978,-0.0635569,0,0
0,0,0.96803,0.250833,0,0,0,0,0.96803,0.250833,0,0
0,0,0.912471,0.409141,0,0,0,0,0.912471,0.409141,0,0
0,0,0.600137,-0.799897,0,0,0,0,0.600137,-0.799897,0,0
0,0,0.967736,0.251965,0,0,0,0,0.967736,0.251965,0,0
0,0,0.955611,0.294631,0,0,0,0,0.955611,0.294631,0,0
0,0,0.745126,0.666924,0,0,0,0,0.745126,0.666924,0,0
0,0,0.922328,-0.386408,0,0,0,0,0.922328,-0.386408,0,0
0,0,0.999099,0.0424329,0,0,0,0,0.999099,0.0424329,0,0
0,0,0.958832,0.283973,0,0,0,0,0.958832,0.283973,0,0
