Ex_Re,Ex_Im,Ey_Re,Ey_Im,Ez_Re,Ez_Im,Hx_Re,Hx_Im,Hy_Re,Hy_Im,Hz_Re,Hz_Im
0.685596,-0.173084,-0.685596,0.173084,0,0,0.0483582,-0.0122084,0.0483582,-0.0122084,-0.967164,0.244168
0.607308,-0.362183,-0.607308,0.362183,0,0,0.0428362,-0.0255465,0.0428362,-0.0255465,-0.856724,0.510929
0.0118214,-0.707008,-0.0118214,0.707008,0,0,0.000833817,-0.0498685,0.000833817,-0.0498685,-0.0166763,0.99737
0.413756,0.573416,-0.413756,-0.573416,0,0,0.0291841,0.0404456,0.0291841,0.0404456,-0.583682,-0.808913
-0.370058,-0.602542,0.370058,0.602542,0,0,-0.0261019,-0.0425001,-0.0261019,-0.0425001,0.522037,0.850001
-0.0981705,0.700259,0.0981705,-0.700259,0,0,-0.00692441,0.0493925,-0.00692441,0.0493925,0.138488,-0.987849
0.613243,0.352041,-0.613243,-0.352041,0,0,0.0432548,0.0248311,0.0432548,0.0248311,-0.865097,-0.496621
-0.688897,0.159438,0.688897,-0.159438,0,0,-0.0485911,0.0112459,-0.0485911,0.0112459,0.971821,-0.224918
-0.431767,-0.55998,0.431767,0.55998,0,0,-0.0304545,-0.0394979,-0.0304545,-0.0394979,0.609089,0.789959
0.649037,-0.280626,-0.649037,0.280626,0,0,0.0457795,-0.0197939,0.0457795,-0.0197939,-0.915591,0.395877
-0.549433,0.445111,0.549433,-0.445111,0,0,-0.038754,0.0313957,-0.038754,0.0313957,0.77508,-0.627914
0.701882,-0.0858041,-0.701882,0.0858041,0,0,0.0495069,-0.00605215,0.0495069,-0.00605215,-0.990138,0.121043
-0.405977,-0.578949,0.405977,0.578949,0,0,-0.0286354,-0.0408359,-0.0286354,-0.0408359,0.572709,0.816719
-0.688576,-0.160822,0.688576,0.160822,0,0,-0.0485684,-0.0113435,-0.0485684,-0.0113435,0.971368,0.22687
-0.574991,-0.411564,0.574991,0.411564,0,0,-0.0405568,-0.0290295,-0.0405568,-0.0290295,0.811135,0.58059
0.656186,-0.263478,-0.656186,0.263478,0,0,0.0462838,-0.0185843,0.0462838,-0.0185843,-0.925675,0.371686
-0.529997,-0.468085,0.529997,0.468085,0,0,-0.0373831,-0.0330162,-0.0373831,-0.0330162,0.747662,0.660323
0.678206,-0.200092,-0.678206,0.200092,0,0,0.047837,-0.0141134,0.047837,-0.0141134,-0.956739,0.282268
-0.142659,-0.692566,0.142659,0.692566,0,0,-0.0100624,-0.0488499,-0.0100624,-0.0488499,0.201248,0.976997
-0.597218,0.37859,0.597218,-0.37859,0,0,-0.0421245,0.0267037,-0.0421245,0.0267037,0.842491,-0.534073
-0.240454,0.664968,0.240454,-0.664968,0,0,-0.0169603,0.0469032,-0.0169603,0.0469032,0.339206,-0.938064
0.42451,0.565501,-0.42451,-0.565501,0,0,0.0299426,0.0398874,0.0299426,0.0398874,-0.598852,-0.797748
0.105993,-0.699118,-0.105993,0.699118,0,0,0.00747617,-0.049312,0.00747617,-0.049312,-0.149523,0.986239
-0.530606,-0.467394,0.530606,0.467394,0,0,-0.0374261,-0.0329674,-0.0374261,-0.0329674,0.748521,0.659349
0.171968,0.685877,-0.171968,-0.685877,0,0,0.0121297,0.048378,0.0121297,0.048378,-0.242594,-0.96756
-0.469167,0.529039,0.469167,-0.529039,0,0,-0.0330925,0.0373155,-0.0330925,0.0373155,0.66185,-0.746311
-0.688679,-0.160378,0.688679,0.160378,0,0,-0.0485757,-0.0113122,-0.0485757,-0.0113122,0.971514,0.226244
0.637397,-0.306146,-0.637397,0.306146,0,0,0.0449585,-0.0215939,0.0449585,-0.0215939,-0.89917,0.431878
-0.673119,0.21659,0.673119,-0.21659,0,0,-0.0474781,0.0152771,-0.0474781,0.0152771,0.949562,-0.305542
-0.427129,-0.563525,0.427129,0.563525,0,0,-0.0301274,-0.039748,-0.0301274,-0.039748,0.602548,0.79496
-0.0587379,0.704663,0.0587379,-0.704663,0,0,-0.00414305,0.0497031,-0.00414305,0.0497031,0.082861,-0.994062
-0.638108,0.304661,0.638108,-0.304661,0,0,-0.0450087,0.0214891,-0.0450087,0.0214891,0.900173,-0.429782
0.569183,-0.419561,-0.569183,0.419561,0,0,0.040147,-0.0295935,0.040147,-0.0295935,-0.802941,0.591871
0.581481,-0.402342,-0.581481,0.402342,0,0,0.0410145,-0.028379,0.0410145,-0.028379,-0.820291,0.567581
0.0635988,0.704241,-0.0635988,-0.704241,0,0,0.00448591,0.0496733,0.00448591,0.0496733,-0.0897183,-0.993466
-0.335936,0.622211,0.335936,-0.622211,0,0,-0.0236951,0.0438874,-0.0236951,0.0438874,0.473902,-0.877748
-0.560949,0.430506,0.560949,-0.430506,0,0,-0.0395663,0.0303656,-0.0395663,0.0303656,0.791326,-0.607312
-0.611065,0.355809,0.611065,-0.355809,0,0,-0.0431012,0.0250968,-0.0431012,0.0250968,0.862024,-0.501936
-0.476593,-0.52236,0.476593,0.52236,0,0,-0.0336162,-0.0368444,-0.0336162,-0.0368444,0.672325,0.736888
-0.579689,0.404921,0.579689,-0.404921,0,0,-0.0408881,0.0285609,-0.0408881,0.0285609,0.817762,-0.571218
-0.203437,0.67721,0.203437,-0.67721,0,0,-0.0143493,0.0477667,-0.0143493,0.0477667,0.286987,-0.955334
-0.312376,0.634367,0.312376,-0.634367,0,0,-0.0220333,0.0447448,-0.0220333,0.0447448,0.440666,-0.894896
0.614257,-0.350268,-0.614257,0.350268,0,0,0.0433264,-0.024706,0.0433264,-0.024706,-0.866527,0.494121
-0.14728,-0.691599,0.14728,0.691599,0,0,-0.0103883,-0.0487816,-0.0103883,-0.0487816,0.207766,0.975632
0.642401,-0.2955,-0.642401,0.2955,0,0,0.0453115,-0.020843,0.0453115,-0.020843,-0.90623,0.41686
-0.18451,-0.68261,0.18451,0.68261,0,0,-0.0130143,-0.0481476,-0.0130143,-0.0481476,0.260287,0.962952
-0.377504,-0.597905,0.377504,0.597905,0,0,-0.0266271,-0.042173,-0.0266271,-0.042173,0.532542,0.843459
0.501901,-0.498092,-0.501901,0.498092,0,0,0.0354013,-0.0351327,0.0354013,-0.0351327,-0.708027,0.702654
0.0486494,0.705431,-0.0486494,-0.705431,0,0,0.00343146,0.0497573,0.00343146,0.0497573,-0.0686293,-0.995146
-0.683768,0.180169,0.683768,-0.180169,0,0,-0.0482293,0.0127082,-0.0482293,0.0127082,0.964586,-0.254164
0.703289,-0.0733812,-0.703289,0.0733812,0,0,0.0496062,-0.00517591,0.0496062,-0.00517591,-0.992123,0.103518
-0.707084,-0.00565287,0.707084,0.00565287,0,0,-0.0498739,-0.000398723,-0.0498739,-0.000398723,0.997477,0.00797446
0.702966,0.0764103,-0.702966,-0.0764103,0,0,0.0495834,0.00538957,0.0495834,0.00538957,-0.991668,-0.107791
0.674365,-0.212678,-0.674365,0.212678,0,0,0.047566,-0.0150012,0.047566,-0.0150012,-0.951321,0.300023
0.300369,0.64014,-0.300369,-0.64014,0,0,0.0211864,0.045152,0.0211864,0.045152,-0.423727,-0.903039
-0.486355,-0.513283,0.486355,0.513283,0,0,-0.0343048,-0.0362042,-0.0343048,-0.0362042,0.686096,0.724083
0.550565,-0.44371,-0.550565,0.44371,0,0,0.0388338,-0.0312969,0.0388338,-0.0312969,-0.776677,0.625938
0.0836795,0.702138,-0.0836795,-0.702138,0,0,0.00590229,0.049525,0.00590229,0.049525,-0.118046,-0.9905
-0.611714,0.354692,0.611714,-0.354692,0,0,-0.0431469,0.0250181,-0.0431469,0.0250181,0.862939,-0.500361
-0.70633,-0.0331267,0.70633,0.0331267,0,0,-0.0498207,-0.00233657,-0.0498207,-0.00233657,0.996414,0.0467315
-0.694546,0.132685,0.694546,-0.132685,0,0,-0.0489895,0.00935891,-0.0489895,0.00935891,0.97979,-0.187178
-0.534669,0.46274,0.534669,-0.46274,0,0,-0.0377127,0.0326392,-0.0377127,0.0326392,0.754253,-0.652784
0.700369,0.097379,-0.700369,-0.097379,0,0,0.0494003,0.00686859,0.0494003,0.00686859,-0.988005,-0.137372
-0.57773,0.407711,0.57773,-0.407711,0,0,-0.0407499,0.0287577,-0.0407499,0.0287577,0.814998,-0.575155
0.485431,-0.514156,-0.485431,0.514156,0,0,0.0342397,-0.0362658,0.0342397,-0.0362658,-0.684794,0.725316
-0.437871,0.55522,0.437871,-0.55522,0,0,-0.030885,0.0391622,-0.030885,0.0391622,0.617701,-0.783244
0.485351,-0.514231,-0.485351,0.514231,0,0,0.034234,-0.0362711,0.034234,-0.0362711,-0.684681,0.725422
-0.70255,-0.080148,0.70255,0.080148,0,0,-0.049554,-0.0056532,-0.049554,-0.0056532,0.991081,0.113064
-0.213303,0.674167,0.213303,-0.674167,0,0,-0.0150452,0.0475521,-0.0150452,0.0475521,0.300905,-0.951042
0.706887,0.0176331,-0.706887,-0.0176331,0,0,0.04986,0.00124374,0.04986,0.00124374,-0.997199,-0.0248749
0.661494,-0.249853,-0.661494,0.249853,0,0,0.0466582,-0.0176232,0.0466582,-0.0176232,-0.933163,0.352465
-0.329265,0.625767,0.329265,-0.625767,0,0,-0.0232246,0.0441382,-0.0232246,0.0441382,0.464492,-0.882764
0.275551,-0.651208,-0.275551,0.651208,0,0,0.0194359,-0.0459327,0.0194359,-0.0459327,-0.388717,0.918653
-0.486232,-0.513399,0.486232,0.513399,0,0,-0.0342961,-0.0362124,-0.0342961,-0.0362124,0.685923,0.724248
-0.659576,-0.254871,0.659576,0.254871,0,0,-0.0465229,-0.0179772,-0.0465229,-0.0179772,0.930458,0.359544
-0.557887,0.434467,0.557887,-0.434467,0,0,-0.0393503,0.030645,-0.0393503,0.030645,0.787007,-0.612899
0.0890895,-0.701472,-0.0890895,0.701472,0,0,0.00628389,-0.049478,0.00628389,-0.049478,-0.125678,0.98956
-0.705589,-0.0463117,0.705589,0.0463117,0,0,-0.0497684,-0.00326658,-0.0497684,-0.00326658,0.995368,0.0653316
-0.0901081,-0.701342,0.0901081,0.701342,0,0,-0.00635573,-0.0494688,-0.00635573,-0.0494688,0.127115,0.989377
0.467979,0.53009,-0.467979,-0.53009,0,0,0.0330087,0.0373897,0.0330087,0.0373897,-0.660174,-0.747794
-0.413417,0.57366,0.413417,-0.57366,0,0,-0.0291602,0.0404629,-0.0291602,0.0404629,0.583204,-0.809257
-0.70233,-0.0820496,0.70233,0.0820496,0,0,-0.0495386,-0.00578733,-0.0495386,-0.00578733,0.990771,0.115747
0.694696,0.131897,-0.694696,-0.131897,0,0,0.0490001,0.0093033,0.0490001,0.0093033,-0.980002,-0.186066
0.53929,-0.457347,-0.53929,0.457347,0,0,0.0380386,-0.0322588,0.0380386,-0.0322588,-0.760771,0.645176
-0.601626,0.371546,0.601626,-0.371546,0,0,-0.0424354,0.0262069,-0.0424354,0.0262069,0.848708,-0.524137
-0.422878,-0.566722,0.422878,0.566722,0,0,-0.0298275,-0.0399735,-0.0298275,-0.0399735,0.59655,0.79947
-0.301434,0.639638,0.301434,-0.639638,0,0,-0.0212615,0.0451166,-0.0212615,0.0451166,0.425231,-0.902332
0.525234,0.473422,-0.525234,-0.473422,0,0,0.0370472,0.0333926,0.0370472,0.0333926,-0.740944,-0.667853
-0.271878,0.65275,0.271878,-0.65275,0,0,-0.0191768,0.0460414,-0.0191768,0.0460414,0.383536,-0.920829
-0.576462,0.409502,0.576462,-0.409502,0,0,-0.0406605,0.028884,-0.0406605,0.028884,0.81321,-0.57768
0.274323,-0.651726,-0.274323,0.651726,0,0,0.0193493,-0.0459692,0.0193493,-0.0459692,-0.386985,0.919384
-0.515442,0.484065,0.515442,-0.484065,0,0,-0.0363565,0.0341433,-0.0363565,0.0341433,0.72713,-0.682866
0.333057,0.623757,-0.333057,-0.623757,0,0,0.023492,0.0439964,0.023492,0.0439964,-0.46984,-0.879929
0.0435242,-0.705766,-0.0435242,0.705766,0,0,0.00306996,-0.0497809,0.00306996,-0.0497809,-0.0613992,0.995618
-0.110068,0.698488,0.110068,-0.698488,0,0,-0.00776359,0.0492675,-0.00776359,0.0492675,0.155272,-0.98535
-0.707029,0.0105117,0.707029,-0.0105117,0,0,-0.04987,0.000741441,-0.04987,0.000741441,0.997399,-0.0148288
0.669996,0.226065,-0.669996,-0.226065,0,0,0.0472579,0.0159454,0.0472579,0.0159454,-0.945157,-0.318908
-0.440033,-0.553508,0.440033,0.553508,0,0,-0.0310375,-0.0390414,-0.0310375,-0.0390414,0.62075,0.780829
-0.688194,-0.162448,0.688194,0.162448,0,0,-0.0485414,-0.0114582,-0.0485414,-0.0114582,0.970829,0.229164
-0.125711,-0.695843,0.125711,0.695843,0,0,-0.00886694,-0.0490809,-0.00886694,-0.0490809,0.177339,0.981619
